
T0B40 000:356 SEGGER J-Link V5.12g Log File (0001ms, 0271ms total)
T0B40 000:356 DLL Compiled: May 27 2016 16:57:47 (0001ms, 0271ms total)
T0B40 000:356 Logging started @ 2021-08-14 20:57 (0001ms, 0271ms total)
T0B40 000:357 JLINK_SetWarnOutHandler(...) (0000ms, 0271ms total)
T0B40 000:357 JLINK_OpenEx(...)
Firmware: J-Link ARM-OB STM32 compiled Aug 22 2012 19:52:04
Hardware: V7.00
S/N: 20090928
Feature(s): RDI,FlashDL,FlashBP,JFlash,GDBFull  returns O.K. (0268ms, 0539ms total)
T0B40 000:625 JLINK_SetErrorOutHandler(...) (0000ms, 0539ms total)
T0B40 000:625 JLINK_ExecCommand("ProjectFile = "C:\Users\dargon\Desktop\·É»ú\JLinkSettings.ini"", ...)  returns 0x00 (0004ms, 0543ms total)
T0B40 000:640 JLINK_ExecCommand("Device = STM32F103C8", ...)Device "STM32F103C8" selected.  returns 0x00 (0012ms, 0556ms total)
T0B40 000:653 JLINK_ExecCommand("DisableConnectionTimeout", ...)  returns 0x01 (0000ms, 0556ms total)
T0B40 000:653 JLINK_GetHardwareVersion()  returns 0x11170 (0000ms, 0556ms total)
T0B40 000:653 JLINK_GetDLLVersion()  returns 51207 (0000ms, 0556ms total)
T0B40 000:653 JLINK_GetFirmwareString(...) (0000ms, 0556ms total)
T0B40 000:678 JLINK_GetDLLVersion()  returns 51207 (0000ms, 0556ms total)
T0B40 000:678 JLINK_GetCompileDateTime() (0000ms, 0556ms total)
T0B40 000:683 JLINK_GetFirmwareString(...) (0000ms, 0556ms total)
T0B40 000:686 JLINK_GetHardwareVersion()  returns 0x11170 (0001ms, 0557ms total)
T0B40 000:699 JLINK_TIF_Select(JLINKARM_TIF_SWD)  returns 0x00 (0002ms, 0559ms total)
T0B40 000:701 JLINK_SetSpeed(20000) (0000ms, 0559ms total)
T0B40 000:701 JLINK_GetId() >0x108 TIF>Found SWD-DP with ID 0x1BA01477 >0x0D TIF> >0x28 TIF> >0x0D TIF> >0x28 TIF> >0x0D TIF> >0x28 TIF> >0x0D TIF> >0x28 TIF> >0x0D TIF> >0x21 TIF> >0x0D TIF> >0x28 TIF> >0x0D TIF> >0x28 TIF> >0x0D TIF> >0x28 TIF> >0x0D TIF> >0x21 TIF> >0x0D TIF> >0x21 TIF> >0x0D TIF> >0x28 TIF> >0x0D TIF> >0x21 TIF> >0x0D TIF> >0x21 TIF> >0x0D TIF> >0x28 TIF> >0x0D TIF> >0x28 TIF> >0x0D TIF> >0x28 TIF> >0x0D TIF> >0x21 TIF> >0x0D TIF> >0x21 TIF> >0x0D TIF> >0x28 TIF> >0x0D TIF>
 >0x21 TIF> >0x0D TIF> >0x21 TIF> >0x0D TIF> >0x28 TIF> >0x0D TIF> >0x21 TIF> >0x0D TIF> >0x21 TIF> >0x0D TIF> >0x28 TIF> >0x0D TIF> >0x21 TIF> >0x0D TIF> >0x21 TIF> >0x108 TIF>Found SWD-DP with ID 0x1BA01477 >0x0D TIF> >0x28 TIF> >0x0D TIF> >0x28 TIF> >0x0D TIF> >0x28 TIF> >0x0D TIF> >0x28 TIF> >0x0D TIF> >0x21 TIF> >0x0D TIF> >0x28 TIF> >0x0D TIF> >0x28 TIF> >0x0D TIF> >0x21 TIF> >0x0D TIF> >0x21 TIF> >0x0D TIF> >0x21 TIF> >0x0D TIF> >0x28 TIF> >0x0D TIF> >0x28 TIF> >0x0D TIF> >0x28 TIF> >0x0D TIF>
 >0x21 TIF> >0x0D TIF> >0x21 TIF> >0x0D TIF> >0x28 TIF> >0x0D TIF> >0x21 TIF> >0x0D TIF> >0x21 TIF>Found Cortex-M3 r1p1, Little endian. -- CPU_ReadMem(4 bytes @ 0xE000EDF0) -- CPU_WriteMem(4 bytes @ 0xE000EDF0) -- CPU_ReadMem(4 bytes @ 0xE0002000)FPUnit: 6 code (BP) slots and 2 literal slots -- CPU_ReadMem(4 bytes @ 0xE000EDFC) -- CPU_WriteMem(4 bytes @ 0xE000EDFC) -- CPU_ReadMem(4 bytes @ 0xE0001000) -- CPU_WriteMem(4 bytes @ 0xE0001000) -- CPU_ReadMem(4 bytes @ 0xE000ED88)
 -- CPU_WriteMem(4 bytes @ 0xE000ED88) -- CPU_ReadMem(4 bytes @ 0xE000ED88) -- CPU_WriteMem(4 bytes @ 0xE000ED88)CoreSight components:ROMTbl 0 @ E00FF000 -- CPU_ReadMem(16 bytes @ 0xE00FF000) -- CPU_ReadMem(16 bytes @ 0xE000EFF0) -- CPU_ReadMem(16 bytes @ 0xE000EFE0)ROMTbl 0 [0]: FFF0F000, CID: B105E00D, PID: 001BB000 SCS -- CPU_ReadMem(16 bytes @ 0xE0001FF0) -- CPU_ReadMem(16 bytes @ 0xE0001FE0)ROMTbl 0 [1]: FFF02000, CID: B105E00D, PID: 001BB002 DWT -- CPU_ReadMem(16 bytes @ 0xE0002FF0)
 -- CPU_ReadMem(16 bytes @ 0xE0002FE0)ROMTbl 0 [2]: FFF03000, CID: B105E00D, PID: 000BB003 FPB -- CPU_ReadMem(16 bytes @ 0xE0000FF0) -- CPU_ReadMem(16 bytes @ 0xE0000FE0)ROMTbl 0 [3]: FFF01000, CID: B105E00D, PID: 001BB001 ITM -- CPU_ReadMem(16 bytes @ 0xE00FF010) -- CPU_ReadMem(16 bytes @ 0xE0040FF0) -- CPU_ReadMem(16 bytes @ 0xE0040FE0)ROMTbl 0 [4]: FFF41000, CID: B105900D, PID: 001BB923 TPIU-Lite >0x0D TIF> >0x21 TIF>  returns 0x1BA01477 (0135ms, 0694ms total)
T0B40 000:836 JLINK_GetDLLVersion()  returns 51207 (0000ms, 0694ms total)
T0B40 000:836 JLINK_CORE_GetFound()  returns 0x30000FF (0000ms, 0694ms total)
T0B40 000:836 JLINK_GetDebugInfo(0x100) -- Value=0xE00FF000  returns 0x00 (0000ms, 0694ms total)
T0B40 000:840 JLINK_ReadMem (0xE00FF000, 0x0020 Bytes, ...) -- CPU is running -- CPU_ReadMem(32 bytes @ 0xE00FF000) - Data: 03 F0 F0 FF 03 20 F0 FF 03 30 F0 FF 03 10 F0 FF ...  returns 0x00 (0001ms, 0695ms total)
T0B40 000:841 JLINK_ReadMem (0xE000EFF0, 0x0010 Bytes, ...) -- CPU is running -- CPU_ReadMem(16 bytes @ 0xE000EFF0) - Data: 0D 00 00 00 E0 00 00 00 05 00 00 00 B1 00 00 00  returns 0x00 (0001ms, 0696ms total)
T0B40 000:842 JLINK_ReadMem (0xE000EFD0, 0x0020 Bytes, ...) -- CPU is running -- CPU_ReadMem(32 bytes @ 0xE000EFD0) - Data: 04 00 00 00 00 00 00 00 00 00 00 00 00 00 00 00 ...  returns 0x00 (0001ms, 0697ms total)
T0B40 000:843 JLINK_ReadMem (0xE0001FF0, 0x0010 Bytes, ...) -- CPU is running -- CPU_ReadMem(16 bytes @ 0xE0001FF0) - Data: 0D 00 00 00 E0 00 00 00 05 00 00 00 B1 00 00 00  returns 0x00 (0001ms, 0698ms total)
T0B40 000:844 JLINK_ReadMem (0xE0001FD0, 0x0020 Bytes, ...) -- CPU is running -- CPU_ReadMem(32 bytes @ 0xE0001FD0) - Data: 04 00 00 00 00 00 00 00 00 00 00 00 00 00 00 00 ...  returns 0x00 (0001ms, 0699ms total)
T0B40 000:845 JLINK_ReadMem (0xE0002FF0, 0x0010 Bytes, ...) -- CPU is running -- CPU_ReadMem(16 bytes @ 0xE0002FF0) - Data: 0D 00 00 00 E0 00 00 00 05 00 00 00 B1 00 00 00  returns 0x00 (0001ms, 0700ms total)
T0B40 000:846 JLINK_ReadMem (0xE0002FD0, 0x0020 Bytes, ...) -- CPU is running -- CPU_ReadMem(32 bytes @ 0xE0002FD0) - Data: 04 00 00 00 00 00 00 00 00 00 00 00 00 00 00 00 ...  returns 0x00 (0001ms, 0701ms total)
T0B40 000:847 JLINK_ReadMem (0xE0000FF0, 0x0010 Bytes, ...) -- CPU is running -- CPU_ReadMem(16 bytes @ 0xE0000FF0) - Data: 0D 00 00 00 E0 00 00 00 05 00 00 00 B1 00 00 00  returns 0x00 (0001ms, 0702ms total)
T0B40 000:848 JLINK_ReadMem (0xE0000FD0, 0x0020 Bytes, ...) -- CPU is running -- CPU_ReadMem(32 bytes @ 0xE0000FD0) - Data: 04 00 00 00 00 00 00 00 00 00 00 00 00 00 00 00 ...  returns 0x00 (0001ms, 0703ms total)
T0B40 000:849 JLINK_ReadMem (0xE0040FF0, 0x0010 Bytes, ...) -- CPU is running -- CPU_ReadMem(16 bytes @ 0xE0040FF0) - Data: 0D 00 00 00 90 00 00 00 05 00 00 00 B1 00 00 00  returns 0x00 (0001ms, 0704ms total)
T0B40 000:850 JLINK_ReadMem (0xE0040FD0, 0x0020 Bytes, ...) -- CPU is running -- CPU_ReadMem(32 bytes @ 0xE0040FD0) - Data: 04 00 00 00 00 00 00 00 00 00 00 00 00 00 00 00 ...  returns 0x00 (0001ms, 0705ms total)
T0B40 000:851 JLINK_ReadMemU32(0xE000ED00, 0x0001 Items, ...) -- CPU is running -- CPU_ReadMem(4 bytes @ 0xE000ED00) - Data: 31 C2 1F 41  returns 0x01 (0001ms, 0706ms total)
T0B40 000:852 JLINK_SetResetType(JLINKARM_RESET_TYPE_NORMAL)  returns JLINKARM_RESET_TYPE_NORMAL (0000ms, 0706ms total)
T0B40 000:852 JLINK_Reset() -- CPU is running -- CPU_WriteMem(4 bytes @ 0xE000EDF0) -- CPU is running -- CPU_WriteMem(4 bytes @ 0xE000EDFC) >0x35 TIF> -- CPU is running -- CPU_WriteMem(4 bytes @ 0xE000ED0C) -- CPU is running -- CPU_ReadMem(4 bytes @ 0xE000EDF0) -- CPU is running -- CPU_ReadMem(4 bytes @ 0xE000EDF0) -- CPU is running -- CPU_WriteMem(4 bytes @ 0xE000EDF0) -- CPU is running -- CPU_WriteMem(4 bytes @ 0xE000EDFC) -- CPU is running -- CPU_ReadMem(4 bytes @ 0xE000EDF0)
 -- CPU_WriteMem(4 bytes @ 0xE0002000) -- CPU_ReadMem(4 bytes @ 0xE000EDFC) -- CPU_ReadMem(4 bytes @ 0xE0001000) (0022ms, 0728ms total)
T0B40 000:874 JLINK_Halt()  returns 0x00 (0000ms, 0728ms total)
T0B40 000:874 JLINK_IsHalted()  returns TRUE (0000ms, 0728ms total)
T0B40 000:874 JLINK_ReadMemU32(0xE000EDF0, 0x0001 Items, ...) -- CPU_ReadMem(4 bytes @ 0xE000EDF0) - Data: 03 00 03 00  returns 0x01 (0001ms, 0729ms total)
T0B40 000:875 JLINK_WriteU32(0xE000EDF0, 0xA05F0003) -- CPU_WriteMem(4 bytes @ 0xE000EDF0)  returns 0x00 (0001ms, 0730ms total)
T0B40 000:876 JLINK_WriteU32(0xE000EDFC, 0x01000000) -- CPU_WriteMem(4 bytes @ 0xE000EDFC)  returns 0x00 (0000ms, 0730ms total)
T0B40 000:907 JLINK_GetHWStatus(...)  returns 0x00 (0001ms, 0731ms total)
T0B40 000:937 JLINK_GetNumBPUnits(Type = 0xFFFFFF00)  returns 0x06 (0000ms, 0731ms total)
T0B40 000:937 JLINK_GetNumBPUnits(Type = 0xF0)  returns 0x2000 (0000ms, 0731ms total)
T0B40 000:937 JLINK_GetNumWPUnits()  returns 0x04 (0000ms, 0731ms total)
T0B40 000:954 JLINK_GetSpeed()  returns 0xFA0 (0000ms, 0731ms total)
T0B40 000:964 JLINK_ReadMemU32(0xE000E004, 0x0001 Items, ...) -- CPU_ReadMem(4 bytes @ 0xE000E004) - Data: 01 00 00 00  returns 0x01 (0001ms, 0732ms total)
T0B40 000:965 JLINK_ReadMemU32(0xE000E004, 0x0001 Items, ...) -- CPU_ReadMem(4 bytes @ 0xE000E004) - Data: 01 00 00 00  returns 0x01 (0001ms, 0733ms total)
T0B40 000:966 JLINK_WriteMem(0xE0001000, 0x001C Bytes, ...) - Data: 01 00 00 00 00 00 00 00 00 00 00 00 00 00 00 00 ... -- CPU_WriteMem(28 bytes @ 0xE0001000)  returns 0x1C (0001ms, 0734ms total)
T0B40 000:967 JLINK_ReadMem (0xE0001000, 0x001C Bytes, ...) -- CPU_ReadMem(28 bytes @ 0xE0001000) - Data: 01 00 00 40 00 00 00 00 00 00 00 00 00 00 00 00 ...  returns 0x00 (0001ms, 0735ms total)
T0B40 000:968 JLINK_Halt()  returns 0x00 (0000ms, 0735ms total)
T0B40 000:968 JLINK_IsHalted()  returns TRUE (0000ms, 0735ms total)
T0B40 000:972 JLINK_WriteMem(0x20000000, 0x0164 Bytes, ...) - Data: 00 BE 0A E0 0D 78 2D 06 68 40 08 24 40 00 00 D3 ... -- CPU_WriteMem(356 bytes @ 0x20000000)  returns 0x164 (0005ms, 0740ms total)
T0B40 000:977 JLINK_WriteReg(R0, 0x08000000)  returns 0x00 (0000ms, 0740ms total)
T0B40 000:977 JLINK_WriteReg(R1, 0x00B71B00)  returns 0x00 (0000ms, 0740ms total)
T0B40 000:977 JLINK_WriteReg(R2, 0x00000001)  returns 0x00 (0000ms, 0740ms total)
T0B40 000:977 JLINK_WriteReg(R3, 0x00000000)  returns 0x00 (0000ms, 0740ms total)
T0B40 000:977 JLINK_WriteReg(R4, 0x00000000)  returns 0x00 (0000ms, 0740ms total)
T0B40 000:977 JLINK_WriteReg(R5, 0x00000000)  returns 0x00 (0000ms, 0740ms total)
T0B40 000:977 JLINK_WriteReg(R6, 0x00000000)  returns 0x00 (0000ms, 0740ms total)
T0B40 000:977 JLINK_WriteReg(R7, 0x00000000)  returns 0x00 (0000ms, 0740ms total)
T0B40 000:977 JLINK_WriteReg(R8, 0x00000000)  returns 0x00 (0000ms, 0740ms total)
T0B40 000:977 JLINK_WriteReg(R9, 0x20000160)  returns 0x00 (0000ms, 0740ms total)
T0B40 000:977 JLINK_WriteReg(R10, 0x00000000)  returns 0x00 (0000ms, 0740ms total)
T0B40 000:977 JLINK_WriteReg(R11, 0x00000000)  returns 0x00 (0000ms, 0740ms total)
T0B40 000:977 JLINK_WriteReg(R12, 0x00000000)  returns 0x00 (0000ms, 0740ms total)
T0B40 000:977 JLINK_WriteReg(R13 (SP), 0x20001000)  returns 0x00 (0000ms, 0740ms total)
T0B40 000:977 JLINK_WriteReg(R14, 0x20000001)  returns 0x00 (0000ms, 0740ms total)
T0B40 000:977 JLINK_WriteReg(R15 (PC), 0x20000038)  returns 0x00 (0000ms, 0740ms total)
T0B40 000:977 JLINK_WriteReg(XPSR, 0x01000000)  returns 0x00 (0000ms, 0740ms total)
T0B40 000:977 JLINK_WriteReg(MSP, 0x20001000)  returns 0x00 (0000ms, 0740ms total)
T0B40 000:977 JLINK_WriteReg(PSP, 0x20001000)  returns 0x00 (0001ms, 0741ms total)
T0B40 000:978 JLINK_WriteReg(CFBP, 0x00000000)  returns 0x00 (0000ms, 0741ms total)
T0B40 000:978 JLINK_SetBPEx(Addr = 0x20000000, Type = 0xFFFFFFF2) -- CPU_ReadMem(2 bytes @ 0x20000000)  returns 0x00000001 (0000ms, 0741ms total)
T0B40 000:978 JLINK_Go() -- CPU_WriteMem(2 bytes @ 0x20000000) -- CPU_ReadMem(4 bytes @ 0xE0001000) -- CPU_WriteMem(4 bytes @ 0xE0002008) -- CPU_WriteMem(4 bytes @ 0xE000200C) -- CPU_WriteMem(4 bytes @ 0xE0002010) -- CPU_WriteMem(4 bytes @ 0xE0002014) -- CPU_WriteMem(4 bytes @ 0xE0002018) -- CPU_WriteMem(4 bytes @ 0xE000201C) -- CPU_WriteMem(4 bytes @ 0xE0001004) (0009ms, 0750ms total)
T0B40 000:987 JLINK_IsHalted() -- CPU_ReadMem(2 bytes @ 0x20000000)  returns TRUE (0004ms, 0754ms total)
T0B40 000:991 JLINK_ReadReg(R15 (PC))  returns 0x20000000 (0000ms, 0750ms total)
T0B40 000:991 JLINK_ClrBPEx(BPHandle = 0x00000001)  returns 0x00 (0000ms, 0750ms total)
T0B40 000:991 JLINK_ReadReg(R0)  returns 0x00000000 (0000ms, 0750ms total)
T0B40 000:991 JLINK_WriteReg(R0, 0x08000000)  returns 0x00 (0000ms, 0750ms total)
T0B40 000:991 JLINK_WriteReg(R1, 0x00B71B00)  returns 0x00 (0000ms, 0750ms total)
T0B40 000:991 JLINK_WriteReg(R2, 0x00000001)  returns 0x00 (0000ms, 0750ms total)
T0B40 000:991 JLINK_WriteReg(R3, 0x00000000)  returns 0x00 (0000ms, 0750ms total)
T0B40 000:991 JLINK_WriteReg(R4, 0x00000000)  returns 0x00 (0001ms, 0751ms total)
T0B40 000:992 JLINK_WriteReg(R5, 0x00000000)  returns 0x00 (0000ms, 0751ms total)
T0B40 000:992 JLINK_WriteReg(R6, 0x00000000)  returns 0x00 (0000ms, 0751ms total)
T0B40 000:992 JLINK_WriteReg(R7, 0x00000000)  returns 0x00 (0000ms, 0751ms total)
T0B40 000:992 JLINK_WriteReg(R8, 0x00000000)  returns 0x00 (0000ms, 0751ms total)
T0B40 000:992 JLINK_WriteReg(R9, 0x20000160)  returns 0x00 (0000ms, 0751ms total)
T0B40 000:992 JLINK_WriteReg(R10, 0x00000000)  returns 0x00 (0000ms, 0751ms total)
T0B40 000:992 JLINK_WriteReg(R11, 0x00000000)  returns 0x00 (0000ms, 0751ms total)
T0B40 000:992 JLINK_WriteReg(R12, 0x00000000)  returns 0x00 (0000ms, 0751ms total)
T0B40 000:992 JLINK_WriteReg(R13 (SP), 0x20001000)  returns 0x00 (0000ms, 0751ms total)
T0B40 000:992 JLINK_WriteReg(R14, 0x20000001)  returns 0x00 (0000ms, 0751ms total)
T0B40 000:992 JLINK_WriteReg(R15 (PC), 0x2000007C)  returns 0x00 (0000ms, 0751ms total)
T0B40 000:992 JLINK_WriteReg(XPSR, 0x01000000)  returns 0x00 (0000ms, 0751ms total)
T0B40 000:992 JLINK_WriteReg(MSP, 0x20001000)  returns 0x00 (0000ms, 0751ms total)
T0B40 000:992 JLINK_WriteReg(PSP, 0x20001000)  returns 0x00 (0000ms, 0751ms total)
T0B40 000:992 JLINK_WriteReg(CFBP, 0x00000000)  returns 0x00 (0000ms, 0751ms total)
T0B40 000:992 JLINK_SetBPEx(Addr = 0x20000000, Type = 0xFFFFFFF2)  returns 0x00000002 (0000ms, 0751ms total)
T0B40 000:992 JLINK_Go() -- CPU_ReadMem(4 bytes @ 0xE0001000) (0003ms, 0754ms total)
T0B40 000:995 JLINK_IsHalted()  returns FALSE (0000ms, 0754ms total)
T0B40 001:059 JLINK_IsHalted() -- CPU_ReadMem(2 bytes @ 0x20000000)  returns TRUE (0004ms, 0758ms total)
T0B40 001:063 JLINK_ReadReg(R15 (PC))  returns 0x20000000 (0000ms, 0754ms total)
T0B40 001:063 JLINK_ClrBPEx(BPHandle = 0x00000002)  returns 0x00 (0000ms, 0754ms total)
T0B40 001:063 JLINK_ReadReg(R0)  returns 0x00000000 (0000ms, 0754ms total)
T0B40 001:114 JLINK_WriteReg(R0, 0x00000001)  returns 0x00 (0000ms, 0754ms total)
T0B40 001:114 JLINK_WriteReg(R1, 0x00B71B00)  returns 0x00 (0000ms, 0754ms total)
T0B40 001:114 JLINK_WriteReg(R2, 0x00000001)  returns 0x00 (0000ms, 0754ms total)
T0B40 001:114 JLINK_WriteReg(R3, 0x00000000)  returns 0x00 (0000ms, 0754ms total)
T0B40 001:114 JLINK_WriteReg(R4, 0x00000000)  returns 0x00 (0000ms, 0754ms total)
T0B40 001:114 JLINK_WriteReg(R5, 0x00000000)  returns 0x00 (0000ms, 0754ms total)
T0B40 001:114 JLINK_WriteReg(R6, 0x00000000)  returns 0x00 (0000ms, 0754ms total)
T0B40 001:114 JLINK_WriteReg(R7, 0x00000000)  returns 0x00 (0000ms, 0754ms total)
T0B40 001:114 JLINK_WriteReg(R8, 0x00000000)  returns 0x00 (0000ms, 0754ms total)
T0B40 001:114 JLINK_WriteReg(R9, 0x20000160)  returns 0x00 (0000ms, 0754ms total)
T0B40 001:114 JLINK_WriteReg(R10, 0x00000000)  returns 0x00 (0000ms, 0754ms total)
T0B40 001:114 JLINK_WriteReg(R11, 0x00000000)  returns 0x00 (0000ms, 0754ms total)
T0B40 001:114 JLINK_WriteReg(R12, 0x00000000)  returns 0x00 (0000ms, 0754ms total)
T0B40 001:114 JLINK_WriteReg(R13 (SP), 0x20001000)  returns 0x00 (0000ms, 0754ms total)
T0B40 001:114 JLINK_WriteReg(R14, 0x20000001)  returns 0x00 (0000ms, 0754ms total)
T0B40 001:114 JLINK_WriteReg(R15 (PC), 0x2000006A)  returns 0x00 (0000ms, 0754ms total)
T0B40 001:114 JLINK_WriteReg(XPSR, 0x01000000)  returns 0x00 (0000ms, 0754ms total)
T0B40 001:114 JLINK_WriteReg(MSP, 0x20001000)  returns 0x00 (0000ms, 0754ms total)
T0B40 001:114 JLINK_WriteReg(PSP, 0x20001000)  returns 0x00 (0000ms, 0754ms total)
T0B40 001:114 JLINK_WriteReg(CFBP, 0x00000000)  returns 0x00 (0000ms, 0754ms total)
T0B40 001:114 JLINK_SetBPEx(Addr = 0x20000000, Type = 0xFFFFFFF2)  returns 0x00000003 (0000ms, 0754ms total)
T0B40 001:114 JLINK_Go() -- CPU_ReadMem(4 bytes @ 0xE0001000) (0003ms, 0757ms total)
T0B40 001:117 JLINK_IsHalted() -- CPU_ReadMem(2 bytes @ 0x20000000)  returns TRUE (0005ms, 0762ms total)
T0B40 001:122 JLINK_ReadReg(R15 (PC))  returns 0x20000000 (0000ms, 0757ms total)
T0B40 001:122 JLINK_ClrBPEx(BPHandle = 0x00000003)  returns 0x00 (0000ms, 0757ms total)
T0B40 001:122 JLINK_ReadReg(R0)  returns 0x00000000 (0000ms, 0757ms total)
T0B40 001:138 JLINK_WriteMem(0x20000000, 0x0164 Bytes, ...) - Data: 00 BE 0A E0 0D 78 2D 06 68 40 08 24 40 00 00 D3 ... -- CPU_WriteMem(356 bytes @ 0x20000000)  returns 0x164 (0005ms, 0762ms total)
T0B40 001:143 JLINK_WriteReg(R0, 0x08000000)  returns 0x00 (0000ms, 0762ms total)
T0B40 001:143 JLINK_WriteReg(R1, 0x00B71B00)  returns 0x00 (0001ms, 0763ms total)
T0B40 001:144 JLINK_WriteReg(R2, 0x00000002)  returns 0x00 (0000ms, 0763ms total)
T0B40 001:144 JLINK_WriteReg(R3, 0x00000000)  returns 0x00 (0000ms, 0763ms total)
T0B40 001:144 JLINK_WriteReg(R4, 0x00000000)  returns 0x00 (0000ms, 0763ms total)
T0B40 001:144 JLINK_WriteReg(R5, 0x00000000)  returns 0x00 (0000ms, 0763ms total)
T0B40 001:144 JLINK_WriteReg(R6, 0x00000000)  returns 0x00 (0000ms, 0763ms total)
T0B40 001:144 JLINK_WriteReg(R7, 0x00000000)  returns 0x00 (0000ms, 0763ms total)
T0B40 001:144 JLINK_WriteReg(R8, 0x00000000)  returns 0x00 (0000ms, 0763ms total)
T0B40 001:144 JLINK_WriteReg(R9, 0x20000160)  returns 0x00 (0000ms, 0763ms total)
T0B40 001:144 JLINK_WriteReg(R10, 0x00000000)  returns 0x00 (0000ms, 0763ms total)
T0B40 001:144 JLINK_WriteReg(R11, 0x00000000)  returns 0x00 (0000ms, 0763ms total)
T0B40 001:144 JLINK_WriteReg(R12, 0x00000000)  returns 0x00 (0000ms, 0763ms total)
T0B40 001:144 JLINK_WriteReg(R13 (SP), 0x20001000)  returns 0x00 (0000ms, 0763ms total)
T0B40 001:144 JLINK_WriteReg(R14, 0x20000001)  returns 0x00 (0000ms, 0763ms total)
T0B40 001:144 JLINK_WriteReg(R15 (PC), 0x20000038)  returns 0x00 (0000ms, 0763ms total)
T0B40 001:144 JLINK_WriteReg(XPSR, 0x01000000)  returns 0x00 (0000ms, 0763ms total)
T0B40 001:144 JLINK_WriteReg(MSP, 0x20001000)  returns 0x00 (0000ms, 0763ms total)
T0B40 001:144 JLINK_WriteReg(PSP, 0x20001000)  returns 0x00 (0001ms, 0764ms total)
T0B40 001:145 JLINK_WriteReg(CFBP, 0x00000000)  returns 0x00 (0000ms, 0764ms total)
T0B40 001:145 JLINK_SetBPEx(Addr = 0x20000000, Type = 0xFFFFFFF2) -- CPU_ReadMem(2 bytes @ 0x20000000)  returns 0x00000004 (0000ms, 0764ms total)
T0B40 001:145 JLINK_Go() -- CPU_WriteMem(2 bytes @ 0x20000000) -- CPU_ReadMem(4 bytes @ 0xE0001000) (0004ms, 0768ms total)
T0B40 001:149 JLINK_IsHalted() -- CPU_ReadMem(2 bytes @ 0x20000000)  returns TRUE (0005ms, 0773ms total)
T0B40 001:154 JLINK_ReadReg(R15 (PC))  returns 0x20000000 (0000ms, 0768ms total)
T0B40 001:154 JLINK_ClrBPEx(BPHandle = 0x00000004)  returns 0x00 (0000ms, 0768ms total)
T0B40 001:154 JLINK_ReadReg(R0)  returns 0x00000000 (0000ms, 0768ms total)
T0B40 001:155 JLINK_WriteMem(0x20000164, 0x0400 Bytes, ...) - Data: 60 0F 00 20 01 01 00 08 09 01 00 08 0B 01 00 08 ... -- CPU_WriteMem(1024 bytes @ 0x20000164)  returns 0x400 (0012ms, 0780ms total)
T0B40 001:167 JLINK_WriteReg(R0, 0x08000000)  returns 0x00 (0000ms, 0780ms total)
T0B40 001:167 JLINK_WriteReg(R1, 0x00000400)  returns 0x00 (0000ms, 0780ms total)
T0B40 001:167 JLINK_WriteReg(R2, 0x20000164)  returns 0x00 (0000ms, 0780ms total)
T0B40 001:167 JLINK_WriteReg(R3, 0x00000000)  returns 0x00 (0000ms, 0780ms total)
T0B40 001:167 JLINK_WriteReg(R4, 0x00000000)  returns 0x00 (0001ms, 0781ms total)
T0B40 001:168 JLINK_WriteReg(R5, 0x00000000)  returns 0x00 (0000ms, 0781ms total)
T0B40 001:168 JLINK_WriteReg(R6, 0x00000000)  returns 0x00 (0000ms, 0781ms total)
T0B40 001:168 JLINK_WriteReg(R7, 0x00000000)  returns 0x00 (0000ms, 0781ms total)
T0B40 001:168 JLINK_WriteReg(R8, 0x00000000)  returns 0x00 (0000ms, 0781ms total)
T0B40 001:168 JLINK_WriteReg(R9, 0x20000160)  returns 0x00 (0000ms, 0781ms total)
T0B40 001:168 JLINK_WriteReg(R10, 0x00000000)  returns 0x00 (0000ms, 0781ms total)
T0B40 001:168 JLINK_WriteReg(R11, 0x00000000)  returns 0x00 (0000ms, 0781ms total)
T0B40 001:168 JLINK_WriteReg(R12, 0x00000000)  returns 0x00 (0000ms, 0781ms total)
T0B40 001:168 JLINK_WriteReg(R13 (SP), 0x20001000)  returns 0x00 (0000ms, 0781ms total)
T0B40 001:168 JLINK_WriteReg(R14, 0x20000001)  returns 0x00 (0000ms, 0781ms total)
T0B40 001:168 JLINK_WriteReg(R15 (PC), 0x200000F4)  returns 0x00 (0000ms, 0781ms total)
T0B40 001:168 JLINK_WriteReg(XPSR, 0x01000000)  returns 0x00 (0000ms, 0781ms total)
T0B40 001:168 JLINK_WriteReg(MSP, 0x20001000)  returns 0x00 (0000ms, 0781ms total)
T0B40 001:168 JLINK_WriteReg(PSP, 0x20001000)  returns 0x00 (0000ms, 0781ms total)
T0B40 001:168 JLINK_WriteReg(CFBP, 0x00000000)  returns 0x00 (0001ms, 0782ms total)
T0B40 001:169 JLINK_SetBPEx(Addr = 0x20000000, Type = 0xFFFFFFF2)  returns 0x00000005 (0000ms, 0782ms total)
T0B40 001:169 JLINK_Go() -- CPU_ReadMem(4 bytes @ 0xE0001000) (0003ms, 0785ms total)
T0B40 001:172 JLINK_IsHalted()  returns FALSE (0000ms, 0785ms total)
T0B40 001:189 JLINK_IsHalted()  returns FALSE (0000ms, 0785ms total)
T0B40 001:191 JLINK_IsHalted()  returns FALSE (0000ms, 0785ms total)
T0B40 001:196 JLINK_IsHalted()  returns FALSE (0000ms, 0785ms total)
T0B40 001:198 JLINK_IsHalted()  returns FALSE (0000ms, 0785ms total)
T0B40 001:200 JLINK_IsHalted()  returns FALSE (0000ms, 0785ms total)
T0B40 001:202 JLINK_IsHalted()  returns FALSE (0000ms, 0785ms total)
T0B40 001:204 JLINK_IsHalted() -- CPU_ReadMem(2 bytes @ 0x20000000)  returns TRUE (0004ms, 0789ms total)
T0B40 001:208 JLINK_ReadReg(R15 (PC))  returns 0x20000000 (0000ms, 0785ms total)
T0B40 001:208 JLINK_ClrBPEx(BPHandle = 0x00000005)  returns 0x00 (0000ms, 0785ms total)
T0B40 001:208 JLINK_ReadReg(R0)  returns 0x00000000 (0000ms, 0785ms total)
T0B40 001:209 JLINK_WriteMem(0x20000164, 0x0400 Bytes, ...) - Data: 00 40 C1 0D C0 F3 16 00 40 F4 00 00 7F 29 01 DA ... -- CPU_WriteMem(1024 bytes @ 0x20000164)  returns 0x400 (0012ms, 0797ms total)
T0B40 001:221 JLINK_WriteReg(R0, 0x08000400)  returns 0x00 (0000ms, 0797ms total)
T0B40 001:221 JLINK_WriteReg(R1, 0x00000400)  returns 0x00 (0000ms, 0797ms total)
T0B40 001:222 JLINK_WriteReg(R2, 0x20000164)  returns 0x00 (0000ms, 0797ms total)
T0B40 001:222 JLINK_WriteReg(R3, 0x00000000)  returns 0x00 (0000ms, 0797ms total)
T0B40 001:222 JLINK_WriteReg(R4, 0x00000000)  returns 0x00 (0000ms, 0797ms total)
T0B40 001:222 JLINK_WriteReg(R5, 0x00000000)  returns 0x00 (0000ms, 0797ms total)
T0B40 001:222 JLINK_WriteReg(R6, 0x00000000)  returns 0x00 (0000ms, 0797ms total)
T0B40 001:222 JLINK_WriteReg(R7, 0x00000000)  returns 0x00 (0000ms, 0797ms total)
T0B40 001:222 JLINK_WriteReg(R8, 0x00000000)  returns 0x00 (0000ms, 0797ms total)
T0B40 001:222 JLINK_WriteReg(R9, 0x20000160)  returns 0x00 (0000ms, 0797ms total)
T0B40 001:222 JLINK_WriteReg(R10, 0x00000000)  returns 0x00 (0000ms, 0797ms total)
T0B40 001:222 JLINK_WriteReg(R11, 0x00000000)  returns 0x00 (0000ms, 0797ms total)
T0B40 001:222 JLINK_WriteReg(R12, 0x00000000)  returns 0x00 (0000ms, 0797ms total)
T0B40 001:222 JLINK_WriteReg(R13 (SP), 0x20001000)  returns 0x00 (0000ms, 0797ms total)
T0B40 001:222 JLINK_WriteReg(R14, 0x20000001)  returns 0x00 (0000ms, 0797ms total)
T0B40 001:222 JLINK_WriteReg(R15 (PC), 0x200000F4)  returns 0x00 (0000ms, 0797ms total)
T0B40 001:222 JLINK_WriteReg(XPSR, 0x01000000)  returns 0x00 (0000ms, 0797ms total)
T0B40 001:222 JLINK_WriteReg(MSP, 0x20001000)  returns 0x00 (0000ms, 0797ms total)
T0B40 001:222 JLINK_WriteReg(PSP, 0x20001000)  returns 0x00 (0000ms, 0797ms total)
T0B40 001:222 JLINK_WriteReg(CFBP, 0x00000000)  returns 0x00 (0000ms, 0797ms total)
T0B40 001:222 JLINK_SetBPEx(Addr = 0x20000000, Type = 0xFFFFFFF2)  returns 0x00000006 (0000ms, 0797ms total)
T0B40 001:222 JLINK_Go() -- CPU_ReadMem(4 bytes @ 0xE0001000) (0003ms, 0800ms total)
T0B40 001:225 JLINK_IsHalted()  returns FALSE (0001ms, 0801ms total)
T0B40 001:232 JLINK_IsHalted()  returns FALSE (0000ms, 0800ms total)
T0B40 001:234 JLINK_IsHalted()  returns FALSE (0000ms, 0800ms total)
T0B40 001:236 JLINK_IsHalted()  returns FALSE (0000ms, 0800ms total)
T0B40 001:238 JLINK_IsHalted()  returns FALSE (0000ms, 0800ms total)
T0B40 001:248 JLINK_IsHalted()  returns FALSE (0000ms, 0800ms total)
T0B40 001:250 JLINK_IsHalted()  returns FALSE (0000ms, 0800ms total)
T0B40 001:252 JLINK_IsHalted()  returns FALSE (0000ms, 0800ms total)
T0B40 001:254 JLINK_IsHalted()  returns FALSE (0000ms, 0800ms total)
T0B40 001:259 JLINK_IsHalted() -- CPU_ReadMem(2 bytes @ 0x20000000)  returns TRUE (0004ms, 0804ms total)
T0B40 001:263 JLINK_ReadReg(R15 (PC))  returns 0x20000000 (0000ms, 0800ms total)
T0B40 001:263 JLINK_ClrBPEx(BPHandle = 0x00000006)  returns 0x00 (0000ms, 0800ms total)
T0B40 001:263 JLINK_ReadReg(R0)  returns 0x00000000 (0000ms, 0800ms total)
T0B40 001:264 JLINK_WriteMem(0x20000164, 0x0400 Bytes, ...) - Data: 00 98 01 22 40 00 00 23 D0 EB 02 02 63 EB E0 73 ... -- CPU_WriteMem(1024 bytes @ 0x20000164)  returns 0x400 (0012ms, 0812ms total)
T0B40 001:276 JLINK_WriteReg(R0, 0x08000800)  returns 0x00 (0000ms, 0812ms total)
T0B40 001:276 JLINK_WriteReg(R1, 0x00000400)  returns 0x00 (0000ms, 0812ms total)
T0B40 001:276 JLINK_WriteReg(R2, 0x20000164)  returns 0x00 (0000ms, 0812ms total)
T0B40 001:276 JLINK_WriteReg(R3, 0x00000000)  returns 0x00 (0000ms, 0812ms total)
T0B40 001:276 JLINK_WriteReg(R4, 0x00000000)  returns 0x00 (0000ms, 0812ms total)
T0B40 001:276 JLINK_WriteReg(R5, 0x00000000)  returns 0x00 (0000ms, 0812ms total)
T0B40 001:276 JLINK_WriteReg(R6, 0x00000000)  returns 0x00 (0000ms, 0812ms total)
T0B40 001:276 JLINK_WriteReg(R7, 0x00000000)  returns 0x00 (0000ms, 0812ms total)
T0B40 001:276 JLINK_WriteReg(R8, 0x00000000)  returns 0x00 (0000ms, 0812ms total)
T0B40 001:276 JLINK_WriteReg(R9, 0x20000160)  returns 0x00 (0000ms, 0812ms total)
T0B40 001:276 JLINK_WriteReg(R10, 0x00000000)  returns 0x00 (0000ms, 0812ms total)
T0B40 001:276 JLINK_WriteReg(R11, 0x00000000)  returns 0x00 (0000ms, 0812ms total)
T0B40 001:276 JLINK_WriteReg(R12, 0x00000000)  returns 0x00 (0000ms, 0812ms total)
T0B40 001:276 JLINK_WriteReg(R13 (SP), 0x20001000)  returns 0x00 (0000ms, 0812ms total)
T0B40 001:276 JLINK_WriteReg(R14, 0x20000001)  returns 0x00 (0000ms, 0812ms total)
T0B40 001:276 JLINK_WriteReg(R15 (PC), 0x200000F4)  returns 0x00 (0000ms, 0812ms total)
T0B40 001:276 JLINK_WriteReg(XPSR, 0x01000000)  returns 0x00 (0000ms, 0812ms total)
T0B40 001:276 JLINK_WriteReg(MSP, 0x20001000)  returns 0x00 (0000ms, 0812ms total)
T0B40 001:276 JLINK_WriteReg(PSP, 0x20001000)  returns 0x00 (0000ms, 0812ms total)
T0B40 001:277 JLINK_WriteReg(CFBP, 0x00000000)  returns 0x00 (0000ms, 0812ms total)
T0B40 001:277 JLINK_SetBPEx(Addr = 0x20000000, Type = 0xFFFFFFF2)  returns 0x00000007 (0000ms, 0812ms total)
T0B40 001:277 JLINK_Go() -- CPU_ReadMem(4 bytes @ 0xE0001000) (0002ms, 0814ms total)
T0B40 001:279 JLINK_IsHalted()  returns FALSE (0001ms, 0815ms total)
T0B40 001:285 JLINK_IsHalted()  returns FALSE (0000ms, 0814ms total)
T0B40 001:290 JLINK_IsHalted()  returns FALSE (0000ms, 0814ms total)
T0B40 001:292 JLINK_IsHalted()  returns FALSE (0000ms, 0814ms total)
T0B40 001:294 JLINK_IsHalted()  returns FALSE (0000ms, 0814ms total)
T0B40 001:296 JLINK_IsHalted()  returns FALSE (0000ms, 0814ms total)
T0B40 001:298 JLINK_IsHalted()  returns FALSE (0000ms, 0814ms total)
T0B40 001:300 JLINK_IsHalted()  returns FALSE (0000ms, 0814ms total)
T0B40 001:302 JLINK_IsHalted()  returns FALSE (0000ms, 0814ms total)
T0B40 001:338 JLINK_IsHalted() -- CPU_ReadMem(2 bytes @ 0x20000000)  returns TRUE (0004ms, 0818ms total)
T0B40 001:342 JLINK_ReadReg(R15 (PC))  returns 0x20000000 (0000ms, 0814ms total)
T0B40 001:342 JLINK_ClrBPEx(BPHandle = 0x00000007)  returns 0x00 (0000ms, 0814ms total)
T0B40 001:342 JLINK_ReadReg(R0)  returns 0x00000000 (0000ms, 0814ms total)
T0B40 001:343 JLINK_WriteMem(0x20000164, 0x0400 Bytes, ...) - Data: 20 6B D6 1F 06 EB 86 07 1F 26 06 FA 07 F1 88 43 ... -- CPU_WriteMem(1024 bytes @ 0x20000164)  returns 0x400 (0013ms, 0827ms total)
T0B40 001:356 JLINK_WriteReg(R0, 0x08000C00)  returns 0x00 (0000ms, 0827ms total)
T0B40 001:356 JLINK_WriteReg(R1, 0x00000400)  returns 0x00 (0000ms, 0827ms total)
T0B40 001:356 JLINK_WriteReg(R2, 0x20000164)  returns 0x00 (0000ms, 0827ms total)
T0B40 001:356 JLINK_WriteReg(R3, 0x00000000)  returns 0x00 (0000ms, 0827ms total)
T0B40 001:356 JLINK_WriteReg(R4, 0x00000000)  returns 0x00 (0000ms, 0827ms total)
T0B40 001:356 JLINK_WriteReg(R5, 0x00000000)  returns 0x00 (0000ms, 0827ms total)
T0B40 001:356 JLINK_WriteReg(R6, 0x00000000)  returns 0x00 (0000ms, 0827ms total)
T0B40 001:356 JLINK_WriteReg(R7, 0x00000000)  returns 0x00 (0000ms, 0827ms total)
T0B40 001:356 JLINK_WriteReg(R8, 0x00000000)  returns 0x00 (0000ms, 0827ms total)
T0B40 001:356 JLINK_WriteReg(R9, 0x20000160)  returns 0x00 (0000ms, 0827ms total)
T0B40 001:356 JLINK_WriteReg(R10, 0x00000000)  returns 0x00 (0000ms, 0827ms total)
T0B40 001:356 JLINK_WriteReg(R11, 0x00000000)  returns 0x00 (0000ms, 0827ms total)
T0B40 001:356 JLINK_WriteReg(R12, 0x00000000)  returns 0x00 (0000ms, 0827ms total)
T0B40 001:356 JLINK_WriteReg(R13 (SP), 0x20001000)  returns 0x00 (0000ms, 0827ms total)
T0B40 001:356 JLINK_WriteReg(R14, 0x20000001)  returns 0x00 (0000ms, 0827ms total)
T0B40 001:356 JLINK_WriteReg(R15 (PC), 0x200000F4)  returns 0x00 (0000ms, 0827ms total)
T0B40 001:356 JLINK_WriteReg(XPSR, 0x01000000)  returns 0x00 (0000ms, 0827ms total)
T0B40 001:356 JLINK_WriteReg(MSP, 0x20001000)  returns 0x00 (0000ms, 0827ms total)
T0B40 001:356 JLINK_WriteReg(PSP, 0x20001000)  returns 0x00 (0000ms, 0827ms total)
T0B40 001:356 JLINK_WriteReg(CFBP, 0x00000000)  returns 0x00 (0000ms, 0827ms total)
T0B40 001:356 JLINK_SetBPEx(Addr = 0x20000000, Type = 0xFFFFFFF2)  returns 0x00000008 (0000ms, 0827ms total)
T0B40 001:356 JLINK_Go() -- CPU_ReadMem(4 bytes @ 0xE0001000) (0003ms, 0830ms total)
T0B40 001:359 JLINK_IsHalted()  returns FALSE (0001ms, 0831ms total)
T0B40 001:370 JLINK_IsHalted()  returns FALSE (0000ms, 0830ms total)
T0B40 001:372 JLINK_IsHalted()  returns FALSE (0000ms, 0830ms total)
T0B40 001:374 JLINK_IsHalted()  returns FALSE (0000ms, 0830ms total)
T0B40 001:378 JLINK_IsHalted()  returns FALSE (0000ms, 0830ms total)
T0B40 001:380 JLINK_IsHalted()  returns FALSE (0000ms, 0830ms total)
T0B40 001:382 JLINK_IsHalted()  returns FALSE (0000ms, 0830ms total)
T0B40 001:389 JLINK_IsHalted()  returns FALSE (0000ms, 0830ms total)
T0B40 001:393 JLINK_IsHalted() -- CPU_ReadMem(2 bytes @ 0x20000000)  returns TRUE (0004ms, 0834ms total)
T0B40 001:397 JLINK_ReadReg(R15 (PC))  returns 0x20000000 (0000ms, 0830ms total)
T0B40 001:397 JLINK_ClrBPEx(BPHandle = 0x00000008)  returns 0x00 (0000ms, 0830ms total)
T0B40 001:397 JLINK_ReadReg(R0)  returns 0x00000000 (0000ms, 0830ms total)
T0B40 001:398 JLINK_WriteMem(0x20000164, 0x0400 Bytes, ...) - Data: A0 78 12 28 6E D1 21 79 09 02 09 B2 62 79 41 EA ... -- CPU_WriteMem(1024 bytes @ 0x20000164)  returns 0x400 (0013ms, 0843ms total)
T0B40 001:411 JLINK_WriteReg(R0, 0x08001000)  returns 0x00 (0000ms, 0843ms total)
T0B40 001:411 JLINK_WriteReg(R1, 0x00000400)  returns 0x00 (0000ms, 0843ms total)
T0B40 001:411 JLINK_WriteReg(R2, 0x20000164)  returns 0x00 (0000ms, 0843ms total)
T0B40 001:411 JLINK_WriteReg(R3, 0x00000000)  returns 0x00 (0000ms, 0843ms total)
T0B40 001:411 JLINK_WriteReg(R4, 0x00000000)  returns 0x00 (0000ms, 0843ms total)
T0B40 001:411 JLINK_WriteReg(R5, 0x00000000)  returns 0x00 (0000ms, 0843ms total)
T0B40 001:411 JLINK_WriteReg(R6, 0x00000000)  returns 0x00 (0000ms, 0843ms total)
T0B40 001:411 JLINK_WriteReg(R7, 0x00000000)  returns 0x00 (0000ms, 0843ms total)
T0B40 001:411 JLINK_WriteReg(R8, 0x00000000)  returns 0x00 (0000ms, 0843ms total)
T0B40 001:411 JLINK_WriteReg(R9, 0x20000160)  returns 0x00 (0000ms, 0843ms total)
T0B40 001:411 JLINK_WriteReg(R10, 0x00000000)  returns 0x00 (0000ms, 0843ms total)
T0B40 001:411 JLINK_WriteReg(R11, 0x00000000)  returns 0x00 (0000ms, 0843ms total)
T0B40 001:411 JLINK_WriteReg(R12, 0x00000000)  returns 0x00 (0000ms, 0843ms total)
T0B40 001:411 JLINK_WriteReg(R13 (SP), 0x20001000)  returns 0x00 (0000ms, 0843ms total)
T0B40 001:411 JLINK_WriteReg(R14, 0x20000001)  returns 0x00 (0000ms, 0843ms total)
T0B40 001:411 JLINK_WriteReg(R15 (PC), 0x200000F4)  returns 0x00 (0000ms, 0843ms total)
T0B40 001:411 JLINK_WriteReg(XPSR, 0x01000000)  returns 0x00 (0001ms, 0844ms total)
T0B40 001:412 JLINK_WriteReg(MSP, 0x20001000)  returns 0x00 (0000ms, 0844ms total)
T0B40 001:412 JLINK_WriteReg(PSP, 0x20001000)  returns 0x00 (0000ms, 0844ms total)
T0B40 001:412 JLINK_WriteReg(CFBP, 0x00000000)  returns 0x00 (0000ms, 0844ms total)
T0B40 001:412 JLINK_SetBPEx(Addr = 0x20000000, Type = 0xFFFFFFF2)  returns 0x00000009 (0000ms, 0844ms total)
T0B40 001:412 JLINK_Go() -- CPU_ReadMem(4 bytes @ 0xE0001000) (0003ms, 0847ms total)
T0B40 001:415 JLINK_IsHalted()  returns FALSE (0000ms, 0847ms total)
T0B40 001:423 JLINK_IsHalted()  returns FALSE (0000ms, 0847ms total)
T0B40 001:434 JLINK_IsHalted()  returns FALSE (0000ms, 0847ms total)
T0B40 001:436 JLINK_IsHalted()  returns FALSE (0000ms, 0847ms total)
T0B40 001:438 JLINK_IsHalted()  returns FALSE (0000ms, 0847ms total)
T0B40 001:446 JLINK_IsHalted() -- CPU_ReadMem(2 bytes @ 0x20000000)  returns TRUE (0004ms, 0851ms total)
T0B40 001:450 JLINK_ReadReg(R15 (PC))  returns 0x20000000 (0000ms, 0847ms total)
T0B40 001:450 JLINK_ClrBPEx(BPHandle = 0x00000009)  returns 0x00 (0000ms, 0847ms total)
T0B40 001:450 JLINK_ReadReg(R0)  returns 0x00000000 (0000ms, 0847ms total)
T0B40 001:451 JLINK_WriteMem(0x20000164, 0x0400 Bytes, ...) - Data: 01 21 4F F4 01 70 02 F0 5F F9 4F F4 00 40 02 F0 ... -- CPU_WriteMem(1024 bytes @ 0x20000164)  returns 0x400 (0012ms, 0859ms total)
T0B40 001:463 JLINK_WriteReg(R0, 0x08001400)  returns 0x00 (0000ms, 0859ms total)
T0B40 001:463 JLINK_WriteReg(R1, 0x00000400)  returns 0x00 (0000ms, 0859ms total)
T0B40 001:463 JLINK_WriteReg(R2, 0x20000164)  returns 0x00 (0000ms, 0859ms total)
T0B40 001:463 JLINK_WriteReg(R3, 0x00000000)  returns 0x00 (0000ms, 0859ms total)
T0B40 001:463 JLINK_WriteReg(R4, 0x00000000)  returns 0x00 (0000ms, 0859ms total)
T0B40 001:463 JLINK_WriteReg(R5, 0x00000000)  returns 0x00 (0000ms, 0859ms total)
T0B40 001:463 JLINK_WriteReg(R6, 0x00000000)  returns 0x00 (0000ms, 0859ms total)
T0B40 001:463 JLINK_WriteReg(R7, 0x00000000)  returns 0x00 (0000ms, 0859ms total)
T0B40 001:463 JLINK_WriteReg(R8, 0x00000000)  returns 0x00 (0000ms, 0859ms total)
T0B40 001:463 JLINK_WriteReg(R9, 0x20000160)  returns 0x00 (0000ms, 0859ms total)
T0B40 001:463 JLINK_WriteReg(R10, 0x00000000)  returns 0x00 (0000ms, 0859ms total)
T0B40 001:463 JLINK_WriteReg(R11, 0x00000000)  returns 0x00 (0000ms, 0859ms total)
T0B40 001:463 JLINK_WriteReg(R12, 0x00000000)  returns 0x00 (0000ms, 0859ms total)
T0B40 001:463 JLINK_WriteReg(R13 (SP), 0x20001000)  returns 0x00 (0000ms, 0859ms total)
T0B40 001:463 JLINK_WriteReg(R14, 0x20000001)  returns 0x00 (0000ms, 0859ms total)
T0B40 001:463 JLINK_WriteReg(R15 (PC), 0x200000F4)  returns 0x00 (0000ms, 0859ms total)
T0B40 001:463 JLINK_WriteReg(XPSR, 0x01000000)  returns 0x00 (0000ms, 0859ms total)
T0B40 001:463 JLINK_WriteReg(MSP, 0x20001000)  returns 0x00 (0000ms, 0859ms total)
T0B40 001:463 JLINK_WriteReg(PSP, 0x20001000)  returns 0x00 (0000ms, 0859ms total)
T0B40 001:463 JLINK_WriteReg(CFBP, 0x00000000)  returns 0x00 (0000ms, 0859ms total)
T0B40 001:463 JLINK_SetBPEx(Addr = 0x20000000, Type = 0xFFFFFFF2)  returns 0x0000000A (0000ms, 0859ms total)
T0B40 001:463 JLINK_Go() -- CPU_ReadMem(4 bytes @ 0xE0001000) (0004ms, 0863ms total)
T0B40 001:467 JLINK_IsHalted()  returns FALSE (0001ms, 0864ms total)
T0B40 001:477 JLINK_IsHalted()  returns FALSE (0000ms, 0863ms total)
T0B40 001:481 JLINK_IsHalted()  returns FALSE (0000ms, 0863ms total)
T0B40 001:483 JLINK_IsHalted()  returns FALSE (0000ms, 0863ms total)
T0B40 001:485 JLINK_IsHalted()  returns FALSE (0000ms, 0863ms total)
T0B40 001:493 JLINK_IsHalted()  returns FALSE (0000ms, 0863ms total)
T0B40 001:495 JLINK_IsHalted()  returns FALSE (0000ms, 0863ms total)
T0B40 001:497 JLINK_IsHalted()  returns FALSE (0000ms, 0863ms total)
T0B40 001:499 JLINK_IsHalted() -- CPU_ReadMem(2 bytes @ 0x20000000)  returns TRUE (0004ms, 0867ms total)
T0B40 001:503 JLINK_ReadReg(R15 (PC))  returns 0x20000000 (0000ms, 0863ms total)
T0B40 001:503 JLINK_ClrBPEx(BPHandle = 0x0000000A)  returns 0x00 (0000ms, 0863ms total)
T0B40 001:503 JLINK_ReadReg(R0)  returns 0x00000000 (0000ms, 0863ms total)
T0B40 001:504 JLINK_WriteMem(0x20000164, 0x0400 Bytes, ...) - Data: 04 00 0C 20 8D F8 05 00 01 20 8D F8 06 00 68 46 ... -- CPU_WriteMem(1024 bytes @ 0x20000164)  returns 0x400 (0013ms, 0876ms total)
T0B40 001:517 JLINK_WriteReg(R0, 0x08001800)  returns 0x00 (0000ms, 0876ms total)
T0B40 001:517 JLINK_WriteReg(R1, 0x00000400)  returns 0x00 (0000ms, 0876ms total)
T0B40 001:517 JLINK_WriteReg(R2, 0x20000164)  returns 0x00 (0000ms, 0876ms total)
T0B40 001:517 JLINK_WriteReg(R3, 0x00000000)  returns 0x00 (0000ms, 0876ms total)
T0B40 001:517 JLINK_WriteReg(R4, 0x00000000)  returns 0x00 (0000ms, 0876ms total)
T0B40 001:517 JLINK_WriteReg(R5, 0x00000000)  returns 0x00 (0000ms, 0876ms total)
T0B40 001:517 JLINK_WriteReg(R6, 0x00000000)  returns 0x00 (0000ms, 0876ms total)
T0B40 001:517 JLINK_WriteReg(R7, 0x00000000)  returns 0x00 (0000ms, 0876ms total)
T0B40 001:517 JLINK_WriteReg(R8, 0x00000000)  returns 0x00 (0000ms, 0876ms total)
T0B40 001:517 JLINK_WriteReg(R9, 0x20000160)  returns 0x00 (0000ms, 0876ms total)
T0B40 001:517 JLINK_WriteReg(R10, 0x00000000)  returns 0x00 (0000ms, 0876ms total)
T0B40 001:517 JLINK_WriteReg(R11, 0x00000000)  returns 0x00 (0000ms, 0876ms total)
T0B40 001:517 JLINK_WriteReg(R12, 0x00000000)  returns 0x00 (0000ms, 0876ms total)
T0B40 001:517 JLINK_WriteReg(R13 (SP), 0x20001000)  returns 0x00 (0000ms, 0876ms total)
T0B40 001:517 JLINK_WriteReg(R14, 0x20000001)  returns 0x00 (0000ms, 0876ms total)
T0B40 001:517 JLINK_WriteReg(R15 (PC), 0x200000F4)  returns 0x00 (0000ms, 0876ms total)
T0B40 001:517 JLINK_WriteReg(XPSR, 0x01000000)  returns 0x00 (0000ms, 0876ms total)
T0B40 001:517 JLINK_WriteReg(MSP, 0x20001000)  returns 0x00 (0000ms, 0876ms total)
T0B40 001:517 JLINK_WriteReg(PSP, 0x20001000)  returns 0x00 (0000ms, 0876ms total)
T0B40 001:517 JLINK_WriteReg(CFBP, 0x00000000)  returns 0x00 (0000ms, 0876ms total)
T0B40 001:517 JLINK_SetBPEx(Addr = 0x20000000, Type = 0xFFFFFFF2)  returns 0x0000000B (0000ms, 0876ms total)
T0B40 001:517 JLINK_Go() -- CPU_ReadMem(4 bytes @ 0xE0001000) (0003ms, 0879ms total)
T0B40 001:520 JLINK_IsHalted()  returns FALSE (0001ms, 0880ms total)
T0B40 001:528 JLINK_IsHalted()  returns FALSE (0000ms, 0879ms total)
T0B40 001:530 JLINK_IsHalted()  returns FALSE (0000ms, 0879ms total)
T0B40 001:532 JLINK_IsHalted()  returns FALSE (0000ms, 0879ms total)
T0B40 001:534 JLINK_IsHalted()  returns FALSE (0000ms, 0879ms total)
T0B40 001:536 JLINK_IsHalted()  returns FALSE (0000ms, 0879ms total)
T0B40 001:538 JLINK_IsHalted()  returns FALSE (0000ms, 0879ms total)
T0B40 001:540 JLINK_IsHalted()  returns FALSE (0000ms, 0879ms total)
T0B40 001:547 JLINK_IsHalted()  returns FALSE (0000ms, 0879ms total)
T0B40 001:549 JLINK_IsHalted()  returns FALSE (0000ms, 0879ms total)
T0B40 001:551 JLINK_IsHalted()  returns FALSE (0000ms, 0879ms total)
T0B40 001:553 JLINK_IsHalted() -- CPU_ReadMem(2 bytes @ 0x20000000)  returns TRUE (0004ms, 0883ms total)
T0B40 001:557 JLINK_ReadReg(R15 (PC))  returns 0x20000000 (0000ms, 0879ms total)
T0B40 001:557 JLINK_ClrBPEx(BPHandle = 0x0000000B)  returns 0x00 (0000ms, 0879ms total)
T0B40 001:557 JLINK_ReadReg(R0)  returns 0x00000000 (0000ms, 0879ms total)
T0B40 001:558 JLINK_WriteMem(0x20000164, 0x0400 Bytes, ...) - Data: 01 20 FF F7 19 FD 40 20 04 49 09 1F 08 60 01 20 ... -- CPU_WriteMem(1024 bytes @ 0x20000164)  returns 0x400 (0013ms, 0892ms total)
T0B40 001:571 JLINK_WriteReg(R0, 0x08001C00)  returns 0x00 (0000ms, 0892ms total)
T0B40 001:571 JLINK_WriteReg(R1, 0x00000400)  returns 0x00 (0000ms, 0892ms total)
T0B40 001:571 JLINK_WriteReg(R2, 0x20000164)  returns 0x00 (0000ms, 0892ms total)
T0B40 001:571 JLINK_WriteReg(R3, 0x00000000)  returns 0x00 (0000ms, 0892ms total)
T0B40 001:571 JLINK_WriteReg(R4, 0x00000000)  returns 0x00 (0000ms, 0892ms total)
T0B40 001:571 JLINK_WriteReg(R5, 0x00000000)  returns 0x00 (0000ms, 0892ms total)
T0B40 001:571 JLINK_WriteReg(R6, 0x00000000)  returns 0x00 (0000ms, 0892ms total)
T0B40 001:571 JLINK_WriteReg(R7, 0x00000000)  returns 0x00 (0000ms, 0892ms total)
T0B40 001:572 JLINK_WriteReg(R8, 0x00000000)  returns 0x00 (0000ms, 0892ms total)
T0B40 001:572 JLINK_WriteReg(R9, 0x20000160)  returns 0x00 (0000ms, 0892ms total)
T0B40 001:572 JLINK_WriteReg(R10, 0x00000000)  returns 0x00 (0000ms, 0892ms total)
T0B40 001:572 JLINK_WriteReg(R11, 0x00000000)  returns 0x00 (0000ms, 0892ms total)
T0B40 001:572 JLINK_WriteReg(R12, 0x00000000)  returns 0x00 (0000ms, 0892ms total)
T0B40 001:572 JLINK_WriteReg(R13 (SP), 0x20001000)  returns 0x00 (0000ms, 0892ms total)
T0B40 001:572 JLINK_WriteReg(R14, 0x20000001)  returns 0x00 (0000ms, 0892ms total)
T0B40 001:572 JLINK_WriteReg(R15 (PC), 0x200000F4)  returns 0x00 (0000ms, 0892ms total)
T0B40 001:572 JLINK_WriteReg(XPSR, 0x01000000)  returns 0x00 (0000ms, 0892ms total)
T0B40 001:572 JLINK_WriteReg(MSP, 0x20001000)  returns 0x00 (0000ms, 0892ms total)
T0B40 001:572 JLINK_WriteReg(PSP, 0x20001000)  returns 0x00 (0000ms, 0892ms total)
T0B40 001:572 JLINK_WriteReg(CFBP, 0x00000000)  returns 0x00 (0000ms, 0892ms total)
T0B40 001:572 JLINK_SetBPEx(Addr = 0x20000000, Type = 0xFFFFFFF2)  returns 0x0000000C (0000ms, 0892ms total)
T0B40 001:572 JLINK_Go() -- CPU_ReadMem(4 bytes @ 0xE0001000) (0004ms, 0896ms total)
T0B40 001:576 JLINK_IsHalted()  returns FALSE (0001ms, 0897ms total)
T0B40 001:590 JLINK_IsHalted()  returns FALSE (0000ms, 0896ms total)
T0B40 001:599 JLINK_IsHalted()  returns FALSE (0000ms, 0896ms total)
T0B40 001:602 JLINK_IsHalted()  returns FALSE (0000ms, 0896ms total)
T0B40 001:604 JLINK_IsHalted()  returns FALSE (0000ms, 0896ms total)
T0B40 001:610 JLINK_IsHalted() -- CPU_ReadMem(2 bytes @ 0x20000000)  returns TRUE (0004ms, 0900ms total)
T0B40 001:614 JLINK_ReadReg(R15 (PC))  returns 0x20000000 (0000ms, 0896ms total)
T0B40 001:614 JLINK_ClrBPEx(BPHandle = 0x0000000C)  returns 0x00 (0000ms, 0896ms total)
T0B40 001:614 JLINK_ReadReg(R0)  returns 0x00000000 (0000ms, 0896ms total)
T0B40 001:615 JLINK_WriteMem(0x20000164, 0x0400 Bytes, ...) - Data: 21 98 FE F7 F9 F8 0A 90 0B 99 FE F7 EF F8 19 90 ... -- CPU_WriteMem(1024 bytes @ 0x20000164)  returns 0x400 (0013ms, 0909ms total)
T0B40 001:628 JLINK_WriteReg(R0, 0x08002000)  returns 0x00 (0001ms, 0910ms total)
T0B40 001:629 JLINK_WriteReg(R1, 0x00000400)  returns 0x00 (0000ms, 0910ms total)
T0B40 001:629 JLINK_WriteReg(R2, 0x20000164)  returns 0x00 (0000ms, 0910ms total)
T0B40 001:629 JLINK_WriteReg(R3, 0x00000000)  returns 0x00 (0000ms, 0910ms total)
T0B40 001:629 JLINK_WriteReg(R4, 0x00000000)  returns 0x00 (0000ms, 0910ms total)
T0B40 001:629 JLINK_WriteReg(R5, 0x00000000)  returns 0x00 (0000ms, 0910ms total)
T0B40 001:629 JLINK_WriteReg(R6, 0x00000000)  returns 0x00 (0000ms, 0910ms total)
T0B40 001:629 JLINK_WriteReg(R7, 0x00000000)  returns 0x00 (0000ms, 0910ms total)
T0B40 001:629 JLINK_WriteReg(R8, 0x00000000)  returns 0x00 (0000ms, 0910ms total)
T0B40 001:629 JLINK_WriteReg(R9, 0x20000160)  returns 0x00 (0000ms, 0910ms total)
T0B40 001:629 JLINK_WriteReg(R10, 0x00000000)  returns 0x00 (0000ms, 0910ms total)
T0B40 001:629 JLINK_WriteReg(R11, 0x00000000)  returns 0x00 (0000ms, 0910ms total)
T0B40 001:629 JLINK_WriteReg(R12, 0x00000000)  returns 0x00 (0000ms, 0910ms total)
T0B40 001:629 JLINK_WriteReg(R13 (SP), 0x20001000)  returns 0x00 (0000ms, 0910ms total)
T0B40 001:629 JLINK_WriteReg(R14, 0x20000001)  returns 0x00 (0000ms, 0910ms total)
T0B40 001:629 JLINK_WriteReg(R15 (PC), 0x200000F4)  returns 0x00 (0000ms, 0910ms total)
T0B40 001:629 JLINK_WriteReg(XPSR, 0x01000000)  returns 0x00 (0000ms, 0910ms total)
T0B40 001:629 JLINK_WriteReg(MSP, 0x20001000)  returns 0x00 (0000ms, 0910ms total)
T0B40 001:629 JLINK_WriteReg(PSP, 0x20001000)  returns 0x00 (0000ms, 0910ms total)
T0B40 001:629 JLINK_WriteReg(CFBP, 0x00000000)  returns 0x00 (0000ms, 0910ms total)
T0B40 001:629 JLINK_SetBPEx(Addr = 0x20000000, Type = 0xFFFFFFF2)  returns 0x0000000D (0000ms, 0910ms total)
T0B40 001:629 JLINK_Go() -- CPU_ReadMem(4 bytes @ 0xE0001000) (0003ms, 0913ms total)
T0B40 001:632 JLINK_IsHalted()  returns FALSE (0001ms, 0914ms total)
T0B40 001:643 JLINK_IsHalted()  returns FALSE (0000ms, 0913ms total)
T0B40 001:645 JLINK_IsHalted()  returns FALSE (0000ms, 0913ms total)
T0B40 001:646 JLINK_IsHalted()  returns FALSE (0000ms, 0913ms total)
T0B40 001:648 JLINK_IsHalted()  returns FALSE (0000ms, 0913ms total)
T0B40 001:650 JLINK_IsHalted()  returns FALSE (0000ms, 0913ms total)
T0B40 001:658 JLINK_IsHalted()  returns FALSE (0000ms, 0913ms total)
T0B40 001:660 JLINK_IsHalted()  returns FALSE (0000ms, 0913ms total)
T0B40 001:662 JLINK_IsHalted()  returns FALSE (0000ms, 0913ms total)
T0B40 001:664 JLINK_IsHalted() -- CPU_ReadMem(2 bytes @ 0x20000000)  returns TRUE (0004ms, 0917ms total)
T0B40 001:668 JLINK_ReadReg(R15 (PC))  returns 0x20000000 (0000ms, 0913ms total)
T0B40 001:668 JLINK_ClrBPEx(BPHandle = 0x0000000D)  returns 0x00 (0000ms, 0913ms total)
T0B40 001:668 JLINK_ReadReg(R0)  returns 0x00000000 (0000ms, 0913ms total)
T0B40 001:669 JLINK_WriteMem(0x20000164, 0x0400 Bytes, ...) - Data: 0E 99 FD F7 F3 FE 02 90 0C 99 FD F7 9D FE 03 90 ... -- CPU_WriteMem(1024 bytes @ 0x20000164)  returns 0x400 (0013ms, 0926ms total)
T0B40 001:682 JLINK_WriteReg(R0, 0x08002400)  returns 0x00 (0000ms, 0926ms total)
T0B40 001:682 JLINK_WriteReg(R1, 0x00000400)  returns 0x00 (0000ms, 0926ms total)
T0B40 001:682 JLINK_WriteReg(R2, 0x20000164)  returns 0x00 (0000ms, 0926ms total)
T0B40 001:682 JLINK_WriteReg(R3, 0x00000000)  returns 0x00 (0000ms, 0926ms total)
T0B40 001:682 JLINK_WriteReg(R4, 0x00000000)  returns 0x00 (0000ms, 0926ms total)
T0B40 001:682 JLINK_WriteReg(R5, 0x00000000)  returns 0x00 (0000ms, 0926ms total)
T0B40 001:682 JLINK_WriteReg(R6, 0x00000000)  returns 0x00 (0000ms, 0926ms total)
T0B40 001:682 JLINK_WriteReg(R7, 0x00000000)  returns 0x00 (0000ms, 0926ms total)
T0B40 001:682 JLINK_WriteReg(R8, 0x00000000)  returns 0x00 (0000ms, 0926ms total)
T0B40 001:682 JLINK_WriteReg(R9, 0x20000160)  returns 0x00 (0000ms, 0926ms total)
T0B40 001:682 JLINK_WriteReg(R10, 0x00000000)  returns 0x00 (0001ms, 0927ms total)
T0B40 001:683 JLINK_WriteReg(R11, 0x00000000)  returns 0x00 (0000ms, 0927ms total)
T0B40 001:683 JLINK_WriteReg(R12, 0x00000000)  returns 0x00 (0000ms, 0927ms total)
T0B40 001:683 JLINK_WriteReg(R13 (SP), 0x20001000)  returns 0x00 (0000ms, 0927ms total)
T0B40 001:683 JLINK_WriteReg(R14, 0x20000001)  returns 0x00 (0000ms, 0927ms total)
T0B40 001:683 JLINK_WriteReg(R15 (PC), 0x200000F4)  returns 0x00 (0000ms, 0927ms total)
T0B40 001:683 JLINK_WriteReg(XPSR, 0x01000000)  returns 0x00 (0000ms, 0927ms total)
T0B40 001:683 JLINK_WriteReg(MSP, 0x20001000)  returns 0x00 (0000ms, 0927ms total)
T0B40 001:683 JLINK_WriteReg(PSP, 0x20001000)  returns 0x00 (0000ms, 0927ms total)
T0B40 001:683 JLINK_WriteReg(CFBP, 0x00000000)  returns 0x00 (0000ms, 0927ms total)
T0B40 001:683 JLINK_SetBPEx(Addr = 0x20000000, Type = 0xFFFFFFF2)  returns 0x0000000E (0000ms, 0927ms total)
T0B40 001:683 JLINK_Go() -- CPU_ReadMem(4 bytes @ 0xE0001000) (0003ms, 0930ms total)
T0B40 001:686 JLINK_IsHalted()  returns FALSE (0001ms, 0931ms total)
T0B40 001:692 JLINK_IsHalted()  returns FALSE (0000ms, 0930ms total)
T0B40 001:694 JLINK_IsHalted()  returns FALSE (0000ms, 0930ms total)
T0B40 001:696 JLINK_IsHalted()  returns FALSE (0000ms, 0930ms total)
T0B40 001:698 JLINK_IsHalted()  returns FALSE (0000ms, 0930ms total)
T0B40 001:704 JLINK_IsHalted()  returns FALSE (0000ms, 0930ms total)
T0B40 001:706 JLINK_IsHalted()  returns FALSE (0000ms, 0930ms total)
T0B40 001:708 JLINK_IsHalted()  returns FALSE (0000ms, 0930ms total)
T0B40 001:710 JLINK_IsHalted()  returns FALSE (0000ms, 0930ms total)
T0B40 001:712 JLINK_IsHalted()  returns FALSE (0000ms, 0930ms total)
T0B40 001:714 JLINK_IsHalted()  returns FALSE (0000ms, 0930ms total)
T0B40 001:720 JLINK_IsHalted() -- CPU_ReadMem(2 bytes @ 0x20000000)  returns TRUE (0004ms, 0934ms total)
T0B40 001:724 JLINK_ReadReg(R15 (PC))  returns 0x20000000 (0000ms, 0930ms total)
T0B40 001:724 JLINK_ClrBPEx(BPHandle = 0x0000000E)  returns 0x00 (0000ms, 0930ms total)
T0B40 001:724 JLINK_ReadReg(R0)  returns 0x00000000 (0000ms, 0930ms total)
T0B40 001:725 JLINK_WriteMem(0x20000164, 0x0400 Bytes, ...) - Data: 01 49 08 80 00 20 F6 E7 08 02 00 20 FC 01 00 20 ... -- CPU_WriteMem(1024 bytes @ 0x20000164)  returns 0x400 (0013ms, 0943ms total)
T0B40 001:738 JLINK_WriteReg(R0, 0x08002800)  returns 0x00 (0000ms, 0943ms total)
T0B40 001:738 JLINK_WriteReg(R1, 0x00000400)  returns 0x00 (0000ms, 0943ms total)
T0B40 001:738 JLINK_WriteReg(R2, 0x20000164)  returns 0x00 (0000ms, 0943ms total)
T0B40 001:738 JLINK_WriteReg(R3, 0x00000000)  returns 0x00 (0000ms, 0943ms total)
T0B40 001:738 JLINK_WriteReg(R4, 0x00000000)  returns 0x00 (0000ms, 0943ms total)
T0B40 001:738 JLINK_WriteReg(R5, 0x00000000)  returns 0x00 (0000ms, 0943ms total)
T0B40 001:738 JLINK_WriteReg(R6, 0x00000000)  returns 0x00 (0000ms, 0943ms total)
T0B40 001:738 JLINK_WriteReg(R7, 0x00000000)  returns 0x00 (0000ms, 0943ms total)
T0B40 001:738 JLINK_WriteReg(R8, 0x00000000)  returns 0x00 (0000ms, 0943ms total)
T0B40 001:738 JLINK_WriteReg(R9, 0x20000160)  returns 0x00 (0000ms, 0943ms total)
T0B40 001:738 JLINK_WriteReg(R10, 0x00000000)  returns 0x00 (0000ms, 0943ms total)
T0B40 001:738 JLINK_WriteReg(R11, 0x00000000)  returns 0x00 (0000ms, 0943ms total)
T0B40 001:738 JLINK_WriteReg(R12, 0x00000000)  returns 0x00 (0000ms, 0943ms total)
